rin	I(R19)-I(R20)	V(vout1)	V(voutf)
9.000000000000000e+01	9.609495e-04	8.649984e-02	1.876740e+00
9.050000000000000e+01	9.608575e-04	8.697198e-02	1.886939e+00
9.100000000000000e+01	9.607654e-04	8.744403e-02	1.897136e+00
9.150000000000000e+01	9.606734e-04	8.791599e-02	1.907332e+00
9.200000000000000e+01	9.605814e-04	8.838785e-02	1.917525e+00
9.250000000000000e+01	9.604894e-04	8.885963e-02	1.927717e+00
9.300000000000000e+01	9.603974e-04	8.933132e-02	1.937906e+00
9.350000000000000e+01	9.603055e-04	8.980291e-02	1.948094e+00
9.400000000000000e+01	9.602135e-04	9.027442e-02	1.958279e+00
9.450000000000000e+01	9.601216e-04	9.074584e-02	1.968463e+00
9.500000000000000e+01	9.600297e-04	9.121716e-02	1.978645e+00
9.550000000000000e+01	9.599378e-04	9.168839e-02	1.988825e+00
9.600000000000000e+01	9.598459e-04	9.215954e-02	1.999003e+00
9.650000000000000e+01	9.597540e-04	9.263059e-02	2.009178e+00
9.700000000000000e+01	9.596622e-04	9.310155e-02	2.019352e+00
9.750000000000000e+01	9.595704e-04	9.357243e-02	2.029524e+00
9.800000000000000e+01	9.594785e-04	9.404321e-02	2.039694e+00
9.850000000000000e+01	9.593867e-04	9.451391e-02	2.049862e+00
9.900000000000000e+01	9.592949e-04	9.498451e-02	2.060029e+00
9.950000000000000e+01	9.592032e-04	9.545502e-02	2.070193e+00
1.000000000000000e+02	9.591114e-04	9.592544e-02	2.080355e+00
1.005000000000000e+02	9.590197e-04	9.639578e-02	2.090515e+00
1.010000000000000e+02	9.589279e-04	9.686601e-02	2.100673e+00
1.015000000000000e+02	9.588362e-04	9.733617e-02	2.110830e+00
1.020000000000000e+02	9.587446e-04	9.780622e-02	2.120984e+00
1.025000000000000e+02	9.586529e-04	9.827620e-02	2.131137e+00
1.030000000000000e+02	9.585612e-04	9.874608e-02	2.141287e+00
1.035000000000000e+02	9.584695e-04	9.921587e-02	2.151436e+00
1.040000000000000e+02	9.583779e-04	9.968557e-02	2.161582e+00
1.045000000000000e+02	9.582863e-04	1.001552e-01	2.171727e+00
1.050000000000000e+02	9.581947e-04	1.006247e-01	2.181870e+00
1.055000000000000e+02	9.581031e-04	1.010941e-01	2.192011e+00
1.060000000000000e+02	9.580116e-04	1.015635e-01	2.202150e+00
1.065000000000000e+02	9.579200e-04	1.020327e-01	2.212287e+00
1.070000000000000e+02	9.578285e-04	1.025019e-01	2.222422e+00
1.075000000000000e+02	9.577370e-04	1.029710e-01	2.232555e+00
1.080000000000000e+02	9.576455e-04	1.034399e-01	2.242686e+00
1.085000000000000e+02	9.575540e-04	1.039088e-01	2.252815e+00
1.090000000000000e+02	9.574625e-04	1.043776e-01	2.262942e+00
1.095000000000000e+02	9.573710e-04	1.048464e-01	2.273067e+00
1.100000000000000e+02	9.572796e-04	1.053150e-01	2.283191e+00
1.105000000000000e+02	9.571882e-04	1.057835e-01	2.293312e+00
1.110000000000000e+02	9.570968e-04	1.062519e-01	2.303432e+00
1.115000000000000e+02	9.570054e-04	1.067203e-01	2.313549e+00
1.120000000000000e+02	9.569140e-04	1.071886e-01	2.323665e+00
1.125000000000000e+02	9.568227e-04	1.076567e-01	2.333779e+00
1.130000000000000e+02	9.567313e-04	1.081248e-01	2.343890e+00
1.135000000000000e+02	9.566400e-04	1.085928e-01	2.354000e+00
1.140000000000000e+02	9.565487e-04	1.090607e-01	2.364108e+00
1.145000000000000e+02	9.564574e-04	1.095285e-01	2.374214e+00
1.150000000000000e+02	9.563661e-04	1.099963e-01	2.384318e+00
1.155000000000000e+02	9.562749e-04	1.104639e-01	2.394420e+00
1.160000000000000e+02	9.561836e-04	1.109315e-01	2.404520e+00
1.165000000000000e+02	9.560924e-04	1.113989e-01	2.414618e+00
1.170000000000000e+02	9.560012e-04	1.118663e-01	2.424715e+00
1.175000000000000e+02	9.559100e-04	1.123336e-01	2.434809e+00
1.180000000000000e+02	9.558188e-04	1.128008e-01	2.444902e+00
1.185000000000000e+02	9.557276e-04	1.132679e-01	2.454992e+00
1.190000000000000e+02	9.556364e-04	1.137349e-01	2.465081e+00
1.195000000000000e+02	9.555453e-04	1.142018e-01	2.475167e+00
1.200000000000000e+02	9.554542e-04	1.146686e-01	2.485252e+00
1.205000000000000e+02	9.553631e-04	1.151354e-01	2.495335e+00
1.210000000000000e+02	9.552720e-04	1.156020e-01	2.505416e+00
1.215000000000000e+02	9.551810e-04	1.160686e-01	2.515495e+00
1.220000000000000e+02	9.550899e-04	1.165351e-01	2.525572e+00
1.225000000000000e+02	9.549989e-04	1.170015e-01	2.535647e+00
1.230000000000000e+02	9.549078e-04	1.174678e-01	2.545720e+00
1.235000000000000e+02	9.548169e-04	1.179340e-01	2.555791e+00
1.240000000000000e+02	9.547258e-04	1.184001e-01	2.565861e+00
1.245000000000000e+02	9.546349e-04	1.188661e-01	2.575928e+00
1.250000000000000e+02	9.545439e-04	1.193321e-01	2.585994e+00
1.255000000000000e+02	9.544530e-04	1.197979e-01	2.596057e+00
1.260000000000000e+02	9.543621e-04	1.202637e-01	2.606119e+00
1.265000000000000e+02	9.542712e-04	1.207294e-01	2.616179e+00
1.270000000000000e+02	9.541802e-04	1.211950e-01	2.626236e+00
1.275000000000000e+02	9.540894e-04	1.216605e-01	2.636292e+00
1.280000000000000e+02	9.539985e-04	1.221259e-01	2.646346e+00
1.285000000000000e+02	9.539077e-04	1.225912e-01	2.656398e+00
1.290000000000000e+02	9.538169e-04	1.230564e-01	2.666448e+00
1.295000000000000e+02	9.537261e-04	1.235216e-01	2.676497e+00
1.300000000000000e+02	9.536353e-04	1.239866e-01	2.686543e+00
1.305000000000000e+02	9.535445e-04	1.244516e-01	2.696587e+00
1.310000000000000e+02	9.534538e-04	1.249165e-01	2.706630e+00
1.315000000000000e+02	9.533630e-04	1.253813e-01	2.716670e+00
1.320000000000000e+02	9.532723e-04	1.258460e-01	2.726709e+00
1.325000000000000e+02	9.531816e-04	1.263106e-01	2.736746e+00
1.330000000000000e+02	9.530909e-04	1.267751e-01	2.746780e+00
1.335000000000000e+02	9.530002e-04	1.272395e-01	2.756813e+00
1.340000000000000e+02	9.529095e-04	1.277039e-01	2.766844e+00
1.345000000000000e+02	9.528189e-04	1.281682e-01	2.776873e+00
1.350000000000000e+02	9.527283e-04	1.286323e-01	2.786901e+00
1.355000000000000e+02	9.526376e-04	1.290964e-01	2.796926e+00
1.360000000000000e+02	9.525471e-04	1.295604e-01	2.806949e+00
1.365000000000000e+02	9.524565e-04	1.300243e-01	2.816971e+00
1.370000000000000e+02	9.523659e-04	1.304881e-01	2.826990e+00
1.375000000000000e+02	9.522753e-04	1.309519e-01	2.837008e+00
1.380000000000000e+02	9.521848e-04	1.314155e-01	2.847023e+00
